    Notice.   LIMCRD  within  STARTUP  is invalid.  Replace the bad value  100000   by 2 less than the maximum List 31 = 30002.
   ---   32   cards of disk file read into card cache cells  1   onward.
 <===> Done with  "/"-card sorting by data class.    Remember that the source file appears different from interpreted input data.
Alternative Transients Program (ATP),  Intel Visual Fortran.    All rights reserved by Can/Am user group of Portland, Oregon, USA.
 Date (dd-mth-yy) and time of day (hh.mm.ss) = 23-Oct-19  09.42.36    Name of disk plot file is  sers\student\Desktop\kbo\Noname.pl4
Consult the 860-page ATP Rule Book of the Can/Am EMTP User Group in Portland,  Oregon, USA.  Source code date is 27 June 2016.
Total size of LABCOM tables = 13046853 INTEGER words.  31 VARDIM  List Sizes follow:  6002  10K  192K  900  420K  1200  15K
  120K  2250  3800  720  2K  72800  510  800K  800  90  254  800K  100K  3K  15K  192K  120  45K  260K  600  210K  1100  19 30002
--------------------------------------------------+--------------------------------------------------------------------------------
Descriptive interpretation of input data cards.   |  Input data card images are shown below, all 80 columns, character by character
                                                  0         1         2         3         4         5         6         7         8
                                                  012345678901234567890123456789012345678901234567890123456789012345678901234567890
--------------------------------------------------+--------------------------------------------------------------------------------
Comment card.   Card index = 1.                   |C data:C:\Users\student\Desktop\kbo\Noname.atp
  Done keyword load.  NUMREQ, N18 =         111         119
Marker card preceding new EMTP data case.         |BEGIN NEW DATA CASE
Comment card.   Card index = 3.                   |C --------------------------------------------------------
Comment card.   Card index = 4.                   |C Generated by ATPDRAW  paŸdziernik, œroda 23, 2019
Comment card.   Card index = 5.                   |C A Bonneville Power Administration program
Comment card.   Card index = 6.                   |C by H. K. Høidalen at SEfAS/NTNU - NORWAY 1994-2016
Comment card.   Card index = 7.                   |C --------------------------------------------------------
Comment card.   Card index = 8.                   |C  dT  >< Tmax >< Xopt >< Copt ><Epsiln>
Misc. data.     1.000E-06   1.000E-01   0.000E+00 |   1.E-6      .1
Misc. data.    500    1  1  1  1  0  0  1  0  0   |     500       1       1       1       1       0       0       1       0
Comment card.   Card index = 11.                  |C        1         2         3         4         5         6         7         8
Comment card.   Card index = 12.                  |C 345678901234567890123456789012345678901234567890123456789012345678901234567890
Comment card.   Card index = 13.                  |C < n1 >< n2 ><ref1><ref2>< R  >< L  >< C  >
Comment card.   Card index = 14.                  |C < n1 >< n2 ><ref1><ref2>< R  >< A  >< B  ><Leng><><>0
Series R-L-C.   6.000E+00  0.000E+00  0.000E+00   |  XX0004XX0003                6.                                               0
Series R-L-C.   0.000E+00  0.000E+00  3.500E-05   |  XX0002                                 35.                                   0
Series R-L-C.   0.000E+00  6.000E-02  0.000E+00   |  XX0003XX0002                     60.                                         0
Blank card ending branches.  IBR, NTOT = 3  4     |BLANK BRANCH
Comment card.   Card index = 19.                  |C < n 1>< n 2>< Tclose ><Top/Tde ><   Ie   ><Vf/CLOP ><  type  >
Permanently-closed switch used for metering.      |  XX0001XX0004                                        MEASURING                1
Blank card ending switches.   KSWTCH = 1.         |BLANK SWITCH
Comment card.   Card index = 22.                  |C < n 1><>< Ampl.  >< Freq.  ><Phase/T0><   A1   ><   T1   >< TSTART >< TSTOP  >
Source.   3.25E+02  5.00E+01  0.00E+00 -1.00E+00  |14XX0001  325.269119       50.                                     -1.      100.
Blank card ends electric sources.  KCONST = 1     |BLANK SOURCE
 
List of input elements that are connected to each node.   Only the physical connections of multi-phase lines are shown (capacitive
and inductive coupling are ignored).   Repeated entries indicate parallel connections.   Switches are included,  although sources
(including rotating machinery) are omitted -- except that U.M. usage produces extra,  internally-defined nodes  "UMXXXX".
--------------+------------------------------
From bus name |  Names of all adjacent busses.
--------------+------------------------------
       XX0004 |XX0003*XX0001*
       XX0003 |XX0004*XX0002*
       XX0002 |TERRA *XX0003*
       XX0001 |XX0004*
       TERRA  |XX0002*
       ------ |-------
 
Sinusoidal steady-state phasor solution, branch by branch.   All flows are away from a bus,  and the real part,  magnitude,  or  "P"
is printed above the imaginary part,  the angle,  or  "Q".   The first solution frequency  =  5.00000000E+01  Hertz.
  Bus K                        Phasor  node  voltage              Phasor  branch  current               Power flow       Power loss
             Bus M         Rectangular            Polar          Rectangular            Polar            P  and  Q        P  and  Q
 
 XX0004                    325.269119       325.269119      .37288309870787  4.4960604423336      60.643678503349  60.643678503351
                                  0.0              0.0      4.4805711350022       85.2426805      -728.6957128495              0.0
 
            XX0003    323.03182040775  324.14853945837      -.3728830987079  4.4960604423336      .1776356839E-11
                      -26.88342681001       -4.7573195      -4.480571135002      -94.7573195       728.6957128495
 
 XX0002               407.48859657741  408.89728219276      .37288309870788  4.4960604423336                  0.0              0.0
                       -33.9121076313       -4.7573195      4.4805711350022       85.2426805      -919.2134477223     -919.2134477
 
            TERRA                 0.0              0.0      -.3728830987079  4.4960604423336                  0.0
                                  0.0              0.0      -4.480571135002      -94.7573195                  0.0
 
 XX0003               323.03182040775  324.14853945837      .37288309870788  4.4960604423336      -.184741111E-12              0.0
                      -26.88342681001       -4.7573195      4.4805711350022       85.2426805      -728.6957128495      190.5177349
 
            XX0002    407.48859657741  408.89728219276      -.3728830987079  4.4960604423336      .1847411113E-12
                       -33.9121076313       -4.7573195      -4.480571135002      -94.7573195      919.21344772229
 
     Total network loss  P-loss  by summing injections =   6.064367850335E+01
 
Output for steady-state phasor switch currents.
      Node-K    Node-M            I-real            I-imag            I-magn          Degrees        Power            Reactive
      XX0001    XX0004        3.72883099E-01    4.48057114E+00    4.49606044E+00      85.2427    6.06436785E+01   -7.28695713E+02
 
Solution at nodes with known voltage.   Nodes that are shorted together by switches are shown as a group of names, with the printed
result applying to the composite group.   The entry "MVA" is  SQRT( P**2 + Q**2 )  in units of power,  while  "P.F."  is the
associated power factor.
              Node                Source  node  voltage             Injected  source  current              Injected  source  power
              name         Rectangular            Polar          Rectangular            Polar            P  and  Q    MVA and P.F.
 
               XX0001
              XX0004       325.269119       325.269119      .37288309870787  4.4960604423336      60.643678503349   731.2148095243
                                  0.0              0.0      4.4805711350022       85.2426805      -728.6957128495        0.0829355
 
Card of names for time-step loop output.          |  XX0002
Output voltage differences for pairs of A6 names  |-5XX0003XX0002XX0004XX0003
Blank card ending requests for output variables.  |BLANK OUTPUT
 
Column headings for the  4   EMTP output variables follow.  These are divided among the 5 possible classes as follows ....
  First  3     output variables are electric-network voltage differences (upper voltage minus lower voltage);
  Next   1     output variables are branch currents (flowing from the upper node to the lower node);
   Step      Time      XX0002     XX0003     XX0004     XX0001
                                  XX0002     XX0003     XX0004
 ***      Phasor I(0) =  3.7288310E-01                     Switch  "XX0001"  to  "XX0004"  closed in the steady-state.
      0       0.0  407.488597 -84.456776 2.23729859 .372883099
    500     .5E-3  407.776758 -84.516501 -1.9957407 -.33262345
   1000     .1E-2  398.024103 -82.495149 -6.1796383 -1.0299397
   1500     .0015  378.470773 -78.442494 -10.211373 -1.7018954
   2000      .002  349.598237 -72.458323 -13.991669 -2.3319449
   2500     .0025  312.117433 -64.689988 -17.427444 -2.9045741
   3000      .003  266.951261 -55.328771 -20.434098  -3.405683
   3500     .0035  215.211863 -44.605176 -22.937596 -3.8229327
   4000      .004  158.173234 -32.783254 -24.876295 -4.1460492
   4500     .0045  97.2398561 -20.154099 -26.202457 -4.3670761
   5000      .005  33.9121096 -7.0286824 -26.883427 -4.4805712
   5500     .0055  -30.250666 6.26980337 -26.902438 -4.4837397
   6000      .006  -93.668569 19.4139059 -26.259022 -4.3765037
   6500     .0065  -154.78004 32.0799737 -24.969021 -4.1615036
   7000      .007  -212.08032  43.956126 -23.064201 -3.8440335
   7500     .0075  -264.15847 54.7499327 -20.591463 -3.4319105
   8000      .008  -309.73216 64.1956143 -17.611695 -2.9352825
   8500     .0085  -347.67923 72.0605867 -14.198268 -2.3663781
   9000      .009  -377.06527 78.1511882 -10.435233 -1.7392056
   9500     .0095  -397.16672 82.3174479 -6.4152483 -1.0692081
  10000       .01   -407.4886 84.4567789 -2.2372986  -.3728831
  10500     .0105  -407.77676 84.5165035 1.99574085 .332623476
  11000      .011   -398.0241 82.4951513 6.17963852 1.02993975
  11500     .0115  -378.47077 78.4424946  10.211373  1.7018955
  12000      .012  -349.59824 72.4583234 13.9916695 2.33194492
  12500     .0125  -312.11743 64.6899879 17.4274447 2.90457412
  13000      .013  -266.95126 55.3287702 20.4340984 3.40568306
  13500     .0135  -215.21186 44.6051746 22.9375967 3.82293278
  14000      .014  -158.17323 32.7832517 24.8762953 4.14604921
  14500     .0145  -97.239854 20.1540964 26.2024569 4.36707615
  15000      .015  -33.912108 7.02868045 26.8834271 4.48057118
  15500     .0155  30.2506675 -6.2698049 26.9024381 4.48373968
  16000      .016  93.6685706 -19.413907 26.2590218 4.37650363
  16500     .0165  154.780043 -32.079974 24.9690212 4.16150353
  17000      .017  212.080316 -43.956126 23.0642005 3.84403341
  17500     .0175  264.158469 -54.749932 20.5914626 3.43191043
  18000      .018  309.732163 -64.195613 17.6116946 2.93528243
  18500     .0185  347.679224 -72.060585 14.1982682 2.36637803
  19000      .019  377.065268 -78.151186 10.4352333 1.73920556
  19500     .0195  397.166714 -82.317446 6.41524839 1.06920806
  20000       .02  407.488598 -84.456778 2.23729873 .372883121
  20500     .0205   407.77676 -84.516503 -1.9957407 -.33262344
  21000      .021  398.024104 -82.495151 -6.1796383 -1.0299397
  21500     .0215  378.470775 -78.442495 -10.211373 -1.7018955
  22000      .022  349.598238 -72.458324 -13.991669 -2.3319449
  22500     .0225  312.117433 -64.689989 -17.427445 -2.9045741
  23000      .023  266.951261 -55.328771 -20.434098  -3.405683
  23500     .0235  215.211863 -44.605176 -22.937597 -3.8229328
  24000      .024  158.173234 -32.783253 -24.876295 -4.1460492
  24500     .0245  97.2398551 -20.154097 -26.202457 -4.3670762
  25000      .025  33.9121084 -7.0286812 -26.883427 -4.4805712
  25500     .0255  -30.250667 6.26980461 -26.902438 -4.4837397
  26000      .026  -93.668571  19.413907 -26.259022 -4.3765037
  26500     .0265  -154.78004 32.0799745 -24.969021 -4.1615036
  27000      .027  -212.08032 43.9561265 -23.064201 -3.8440334
  27500     .0275  -264.15847 54.7499328 -20.591463 -3.4319104
  28000      .028  -309.73216  64.195614 -17.611695 -2.9352824
  28500     .0285  -347.67923  72.060586 -14.198268  -2.366378
  29000      .029  -377.06527 78.1511873 -10.435233 -1.7392055
  29500     .0295  -397.16672  82.317447 -6.4152483  -1.069208
  30000       .03   -407.4886 84.4567779 -2.2372986  -.3728831
  30500     .0305  -407.77676 84.5165026 1.99574081 .332623468
  31000      .031   -398.0241 82.4951506 6.17963844 1.02993974
  31500     .0315  -378.47077 78.4424942 10.2113729 1.70189548
  32000      .032  -349.59824 72.4583233 13.9916694  2.3319449
  32500     .0325  -312.11743 64.6899881 17.4274446  2.9045741
  33000      .033  -266.95126 55.3287706 20.4340983 3.40568304
  33500     .0335  -215.21186 44.6051753 22.9375966 3.82293277
  34000      .034  -158.17323 32.7832525 24.8762952  4.1460492
  34500     .0345  -97.239855 20.1540972 26.2024569 4.36707615
  35000      .035  -33.912108 7.02868117 26.8834271 4.48057118
  35500     .0355  30.2506668 -6.2698043 26.9024381 4.48373969
  36000      .036  93.6685702 -19.413906 26.2590218 4.37650364
  36500     .0365  154.780042 -32.079974 24.9690213 4.16150355
  37000      .037  212.080316 -43.956126 23.0642006 3.84403343
  37500     .0375  264.158469 -54.749932 20.5914627 3.43191045
  38000      .038  309.732164 -64.195613 17.6116947 2.93528244
  38500     .0385  347.679225 -72.060586 14.1982682 2.36637804
  39000      .039  377.065269 -78.151187 10.4352333 1.73920556
  39500     .0395  397.166715 -82.317447 6.41524837 1.06920806
  40000       .04  407.488598 -84.456778 2.23729868 .372883113
  40500     .0405   407.77676 -84.516503 -1.9957407 -.33262346
  41000      .041  398.024105 -82.495151 -6.1796384 -1.0299397
  41500     .0415  378.470775 -78.442495 -10.211373 -1.7018955
  42000      .042  349.598238 -72.458324 -13.991669 -2.3319449
  42500     .0425  312.117433 -64.689989 -17.427445 -2.9045741
  43000      .043   266.95126 -55.328771 -20.434098 -3.4056831
  43500     .0435  215.211862 -44.605175 -22.937597 -3.8229328
  44000      .044  158.173233 -32.783253 -24.876295 -4.1460492
  44500     .0445  97.2398547 -20.154097 -26.202457 -4.3670762
  45000      .045  33.9121081 -7.0286809 -26.883427 -4.4805712
  45500     .0455  -30.250667 6.26980472 -26.902438 -4.4837397
  46000      .046  -93.668571 19.4139069 -26.259022 -4.3765036
  46500     .0465  -154.78004 32.0799743 -24.969021 -4.1615035
  47000      .047  -212.08032 43.9561262 -23.064201 -3.8440334
  47500     .0475  -264.15847 54.7499324 -20.591463 -3.4319104
  48000      .048  -309.73216 64.1956136 -17.611695 -2.9352824
  48500     .0485  -347.67922 72.0605857 -14.198268  -2.366378
  49000      .049  -377.06527  78.151187 -10.435233 -1.7392055
  49500     .0495  -397.16671 82.3174467 -6.4152483 -1.0692081
  50000       .05   -407.4886 84.4567778 -2.2372986 -.37288311
  50500     .0505  -407.77676 84.5165026 1.99574076 .332623459
  51000      .051   -398.0241 82.4951507 6.17963839 1.02993973
  51500     .0515  -378.47077 78.4424945 10.2113728 1.70189547
  52000      .052  -349.59824 72.4583236 13.9916694 2.33194489
  52500     .0525  -312.11743 64.6899884 17.4274446  2.9045741
  53000      .053  -266.95126  55.328771 20.4340983 3.40568304
  53500     .0535  -215.21186 44.6051755 22.9375966 3.82293277
  54000      .054  -158.17323 32.7832527 24.8762952 4.14604921
  54500     .0545  -97.239855 20.1540973 26.2024569 4.36707615
  55000      .055  -33.912108 7.02868117 26.8834271 4.48057119
  55500     .0555  30.2506669 -6.2698044 26.9024382 4.48373969
  56000      .056  93.6685703 -19.413907 26.2590219 4.37650365
  56500     .0565  154.780043 -32.079974 24.9690213 4.16150355
  57000      .057  212.080317 -43.956126 23.0642006 3.84403343
  57500     .0575  264.158469 -54.749932 20.5914627 3.43191045
  58000      .058  309.732164 -64.195614 17.6116946 2.93528244
  58500     .0585  347.679225 -72.060586 14.1982682 2.36637804
  59000      .059  377.065269 -78.151187 10.4352333 1.73920555
  59500     .0595  397.166715 -82.317447 6.41524833 1.06920806
  60000       .06  407.488598 -84.456778 2.23729864 .372883107
  60500     .0605   407.77676 -84.516503 -1.9957408 -.33262346
  61000      .061  398.024104 -82.495151 -6.1796384 -1.0299397
  61500     .0615  378.470775 -78.442495 -10.211373 -1.7018955
  62000      .062  349.598238 -72.458324 -13.991669 -2.3319449
  62500     .0625  312.117433 -64.689988 -17.427445 -2.9045741
  63000      .063   266.95126 -55.328771 -20.434098  -3.405683
  63500     .0635  215.211862 -44.605175 -22.937597 -3.8229328
  64000      .064  158.173233 -32.783253 -24.876295 -4.1460492
  64500     .0645  97.2398547 -20.154097 -26.202457 -4.3670762
  65000      .065  33.9121081  -7.028681 -26.883427 -4.4805712
  65500     .0655  -30.250667 6.26980458 -26.902438 -4.4837397
  66000      .066   -93.66857 19.4139068 -26.259022 -4.3765036
  66500     .0665  -154.78004 32.0799741 -24.969021 -4.1615035
  67000      .067  -212.08032 43.9561261 -23.064201 -3.8440334
  67500     .0675  -264.15847 54.7499323 -20.591463 -3.4319104
  % % % % % %   Suspended simulation;  plot data space exhausted;  SPY SPACE is required.   LIMBUF =  340000.
  % % % % % %   Suspended simulation;  plot data space exhausted;  SPY SPACE is required.   LIMBUF =  340000.
  +++  Time-sharing disabled.   Send  user-keyed interrupt to silence alarm.
   Current values.  INDBUF  INDBEG  LIMBUF  MFLUSH  NUMDCD  KCARD1  KCARD2
                    340000      50  340000    1000      27       1      28
Plot timespan now in memory (in sec) = 0.00000000E+00   6.79900000E-02
   ++++  Begin plot-data copy from memory to disk.   MFLUSH, INDBUF, N4, Tbeg,  Tend = 1001  340000       1  -1.00000E+00
1.00000E+19
SPY:  68000      .068  -309.73216 64.1956135 -17.611695 -2.9352824
  68500     .0685  -347.67922 72.0605856 -14.198268  -2.366378
  69000      .069  -377.06527  78.151187 -10.435233 -1.7392056
  69500     .0695  -397.16671 82.3174468 -6.4152483 -1.0692081
  70000       .07   -407.4886 84.4567779 -2.2372987 -.37288311
  70500     .0705  -407.77676 84.5165028 1.99574075 .332623458
  71000      .071   -398.0241 82.4951509 6.17963839 1.02993973
  71500     .0715  -378.47077 78.4424946 10.2113728 1.70189547
  72000      .072  -349.59824 72.4583237 13.9916694  2.3319449
  72500     .0725  -312.11743 64.6899885 17.4274446  2.9045741
  73000      .073  -266.95126  55.328771 20.4340983 3.40568305
  73500     .0735  -215.21186 44.6051755 22.9375966 3.82293277
  74000      .074  -158.17323 32.7832526 24.8762953 4.14604921
  74500     .0745  -97.239855 20.1540972 26.2024569 4.36707616
  75000      .075  -33.912108 7.02868107 26.8834271 4.48057119
  75500     .0755   30.250667 -6.2698045 26.9024382 4.48373969
  76000      .076  93.6685704 -19.413907 26.2590219 4.37650365
  76500     .0765  154.780043 -32.079974 24.9690213 4.16150355
  77000      .077  212.080317 -43.956126 23.0642006 3.84403343
  77500     .0775  264.158469 -54.749932 20.5914627 3.43191045
  78000      .078  309.732164 -64.195614 17.6116946 2.93528244
  78500     .0785  347.679225 -72.060586 14.1982682 2.36637804
  79000      .079  377.065269 -78.151187 10.4352333 1.73920555
  79500     .0795  397.166715 -82.317447 6.41524833 1.06920805
  80000       .08  407.488598 -84.456778 2.23729864 .372883107
  80500     .0805   407.77676 -84.516503 -1.9957408 -.33262346
  81000      .081  398.024104 -82.495151 -6.1796384 -1.0299397
  81500     .0815  378.470775 -78.442495 -10.211373 -1.7018955
  82000      .082  349.598238 -72.458324 -13.991669 -2.3319449
